!--------------------------------------------------------------
! EIA/IBIS Open Forum Touchstone (R) File Format Specifications Rev 1.1. Created by  XPostPro

!--------------------------------------------------------------
# HZ S RI R 50.000000 
123000000.0 0.58770596981048584 0.39483392238616943 -0.079497121274471283 -0.34532114863395691 0.36735641956329346 -0.48299187421798706 0.031430341303348541 -0.011170149780809879
 -0.0086135184392333031 0.027017157524824142 -0.010582044720649719 0.0050002080388367176 0.0054313084110617638 -0.0037234597839415073 -0.0018665355164557695 0.005692776758223772
 -0.0022496625315397978 0.00093095994088798761 0.002280498156324029 -0.0014964877627789974 -0.00090649782214313745 0.0024952134117484093 -0.00059141829842701554 0.00062049843836575747
 0.0015448477352038026 -0.00050527945859357715 -0.00053610099712386727 0.001558773685246706 6.9422194428625517e-06 0.00068988860584795475 0.0012874641688540578 -4.5879009121563286e-05
 -0.0002645442436914891 0.0012523119803518057 0.00027576475986279547 0.00079089275095611811 0.0011429645819589496 0.00016033247811719775 -0.00010795245179906487 0.0011271963594481349
 0.00038176446105353534 0.00084041681839153171 0.0012252875603735447 0.00030142813920974731 -1.8342932889936492e-05 0.0012096173595637083 0.00049799913540482521 0.0009888727217912674
 0.0012259166687726974 0.00031349167693406343 -4.8852698455448262e-06 0.0012178058968856931 0.00051084230653941631 0.0010019077453762293 0.0011331004789099097 0.00021205823577474803
 -6.0121139540569857e-05 0.0011411253362894058 0.00042810212471522391 0.0008802835363894701 0.0012529338710010052 8.2750746514648199e-05 -0.00018283163080923259 0.0012349965982139111
 0.00037051652907393873 0.00085612578550353646 0.0014002553652971983 -0.0001777139405021444 -0.00040831984370015562 0.0013719937996938825 0.00020464354020077735 0.00076678890036419034
 0.0015949117951095104 -0.00061437254771590233 -0.00063066167058423162 0.0016100151697173715 -9.3237766122911125e-05 0.00061802682466804981 0.002197278430685401 -0.0014336090534925461
 -0.00094931328203529119 0.0022888702806085348 -0.00064080476295202971 0.00047758349683135748 0.0046366509050130844 -0.0033276274334639311 -0.0015954776899889112 0.0048110089264810085
 -0.0021201586350798607 0.00069155445089563727 0.023881848901510239 -0.0092546241357922554 -0.0065447785891592503 0.020265160128474236 -0.0089957397431135178 0.0032587689347565174 !row 0
       -0.079497121274471283 -0.34532114863395691 0.58770596981048584 0.39483392238616943 0.36735641956329346 -0.48299187421798706 -0.0086135184392333031 0.027017157524824142
 0.031430341303348541 -0.011170149780809879 -0.010582044720649719 0.0050002080388367176 -0.0018665355164557695 0.005692776758223772 0.0054313084110617638 -0.0037234597839415073
 -0.0022496625315397978 0.00093095994088798761 -0.00090649782214313745 0.0024952134117484093 0.002280498156324029 -0.0014964877627789974 -0.00059141829842701554 0.00062049843836575747
 -0.00053610099712386727 0.001558773685246706 0.0015448477352038026 -0.00050527945859357715 6.9422194428625517e-06 0.00068988860584795475 -0.0002645442436914891 0.0012523119803518057
 0.0012874641688540578 -4.5879009121563286e-05 0.00027576475986279547 0.00079089275095611811 -0.00010795245179906487 0.0011271963594481349 0.0011429645819589496 0.00016033247811719775
 0.00038176446105353534 0.00084041681839153171 -1.8342932889936492e-05 0.0012096173595637083 0.0012252875603735447 0.00030142813920974731 0.00049799913540482521 0.0009888727217912674
 -4.8852698455448262e-06 0.0012178058968856931 0.0012259166687726974 0.00031349167693406343 0.00051084230653941631 0.0010019077453762293 -6.0121139540569857e-05 0.0011411253362894058
 0.0011331004789099097 0.00021205823577474803 0.00042810212471522391 0.0008802835363894701 -0.00018283163080923259 0.0012349965982139111 0.0012529338710010052 8.2750746514648199e-05
 0.00037051652907393873 0.00085612578550353646 -0.00040831984370015562 0.0013719937996938825 0.0014002553652971983 -0.0001777139405021444 0.00020464354020077735 0.00076678890036419034
 -0.00063066167058423162 0.0016100151697173715 0.0015949117951095104 -0.00061437254771590233 -9.3237766122911125e-05 0.00061802682466804981 -0.00094931328203529119 0.0022888702806085348
 0.002197278430685401 -0.0014336090534925461 -0.00064080482115969062 0.00047758349683135748 -0.0015954776899889112 0.0048110089264810085 0.0046366509050130844 -0.0033276274334639311
 -0.0021201586350798607 0.00069155439268797636 -0.0065447785891592503 0.020265160128474236 0.023881848901510239 -0.0092546241357922554 -0.0089957397431135178 0.0032587689347565174 !row 1
       0.36718478798866272 -0.48307478427886963 0.36718478798866272 -0.48307478427886963 0.1831589937210083 0.47664448618888855 -0.010568833909928799 0.0051514836959540844
 -0.010568833909928799 0.0051514836959540844 0.029531138017773628 0.014562495984137058 -0.0022425008937716484 0.00094101496506482363 -0.0022425008937716484 0.00094101496506482363
 0.0048645692877471447 0.0018620464252308011 -0.00058061321033164859 0.00059815484564751387 -0.00058061321033164859 0.00059815484564751387 0.0014861191157251596 0.00093267118791118264
 1.6299192793667316e-05 0.00066313333809375763 1.6299192793667316e-05 0.00066313333809375763 0.00067793892230838537 0.00097165565239265561 0.00028601352823898196 0.00077980337664484978
 0.00028601352823898196 0.00077980337664484978 0.00049349782057106495 0.0010766024934127927 0.00038526239222846925 0.00083898595767095685 0.00038526239222846925 0.00083898595767095685
 0.00044532597530633211 0.0011244579218327999 0.0004982467507943511 0.00098863162565976381 0.0004982467507943511 0.00098863162565976381 0.0005007570143789053 0.0013133257161825895
 0.00051109713967889547 0.0010016561718657613 0.00051109713967889547 0.0010016561718657613 0.00050336122512817383 0.0013284648302942514 0.00042812031460925937 0.00088219129247590899
 0.00042812031460925937 0.00088219129247590899 0.00044756641727872193 0.0011704128701239824 0.00037464124034158885 0.00085244333604350686 0.00037464124034158885 0.00085244333604350686
 0.00046754302456974983 0.0011515459045767784 0.0002037317754002288 0.00075503240805119276 0.0002037317754002288 0.00075503240805119276 0.00051038613310083747 0.0010611219331622124
 -9.4331124273594469e-05 0.00061541848117485642 -9.4331124273594469e-05 0.00061541848117485642 0.00070092029636725783 0.00090940837981179357 -0.00064366409787908196 0.00049113790737465024
 -0.00064366409787908196 0.00049113790737465024 0.0014035549247637391 0.00084537046495825052 -0.0021201593335717916 0.0007158128428272903 -0.0021201593335717916 0.0007158128428272903
 0.0043061720207333565 0.0014783781953155994 -0.008994213305413723 0.0032613137736916542 -0.008994213305413723 0.0032613137736916542 0.02313646487891674 0.010597825981676579 !row 2
       0.031430404633283615 -0.011170186102390289 -0.0086135230958461761 0.027017220854759216 -0.010571099817752838 0.0051485649310052395 0.58717399835586548 0.39193952083587646
 -0.080057047307491302 -0.34803667664527893 0.3684827983379364 -0.48295265436172485 0.027346286922693253 -0.0099868606775999069 -0.0076000927947461605 0.023314081132411957
 -0.0093664024025201797 0.0040827067568898201 0.0047899889759719372 -0.0033710470888763666 -0.0016005848301574588 0.0050303400494158268 -0.0020239660516381264 0.00085328315617516637
 0.0019719651900231838 -0.0012020604917779565 -0.0007733055972494185 0.0020493140909820795 -0.00044599658576771617 0.00054464873392134905 0.0013344996841624379 -0.00038375717122107744
 -0.00041695317486301064 0.0013153748586773872 4.8335838073398918e-05 0.00061066338093951344 0.0011023698607459664 -3.642016599769704e-05 -0.00022246473236009479 0.0010793168330565095
 0.00023535055515822023 0.00067926285555586219 0.0011428249999880791 0.00016081731882877648 -0.00010809676314238459 0.0011276843724772334 0.00038490287261083722 0.00083977333270013332
 0.0011330134002491832 0.00021244035451672971 -6.0199916333658621e-05 0.0011415142798796296 0.00042776495683938265 0.00088286510435864329 0.0010276144603267312 0.00017264935013372451
 -5.4250402172328904e-05 0.0010793174151331186 0.00039461828419007361 0.00081123056588694453 0.0011135105742141604 0.0001069575737346895 -0.00011252398689975962 0.0011707126395776868
 0.00038376203156076372 0.00082618283340707421 0.0012007268378511071 -3.4856770071201026e-05 -0.00025558547349646688 0.0012646187096834183 0.00029682618333026767 0.00078594154911115766
 0.001260029268451035 -0.00022860414173919708 -0.00039905140874907374 0.001309771672822535 0.00013502661022357643 0.00067552889231592417 0.001380844390951097 -0.00057897338410839438
 -0.00055717560462653637 0.00143889628816396 -0.00011947657912969589 0.00052319932729005814 0.0018710806034505367 -0.0013246691087260842 -0.00076703366357833147 0.002064127940684557
 -0.00060074281645938754 0.00044666128815151751 0.0046348567120730877 -0.0033268539700657129 -0.0015972844557836652 0.0048118126578629017 -0.0021184391807764769 0.00071677815867587924 !row 3
       -0.0086135230958461761 0.027017220854759216 0.031430404633283615 -0.011170186102390289 -0.010571099817752838 0.0051485649310052395 -0.080057047307491302 -0.34803667664527893
 0.58717399835586548 0.39193952083587646 0.3684827983379364 -0.48295265436172485 -0.0076000927947461605 0.023314081132411957 0.027346286922693253 -0.0099868606775999069
 -0.0093664024025201797 0.0040827067568898201 -0.0016005848301574588 0.0050303400494158268 0.0047899889759719372 -0.0033710470888763666 -0.0020239660516381264 0.00085328315617516637
 -0.0007733055972494185 0.0020493140909820795 0.0019719651900231838 -0.0012020604917779565 -0.00044599658576771617 0.00054464873392134905 -0.00041695317486301064 0.0013153748586773872
 0.0013344996841624379 -0.00038375717122107744 4.8335841711377725e-05 0.00061066338093951344 -0.00022246473236009479 0.0010793168330565095 0.0011023698607459664 -3.642016599769704e-05
 0.000235350540606305 0.00067926273914054036 -0.00010809676314238459 0.0011276843724772334 0.0011428249999880791 0.00016081731882877648 0.00038490287261083722 0.00083977333270013332
 -6.0199916333658621e-05 0.0011415142798796296 0.0011330134002491832 0.00021244035451672971 0.00042776495683938265 0.00088286510435864329 -5.4250402172328904e-05 0.0010793174151331186
 0.0010276144603267312 0.00017264935013372451 0.00039461828419007361 0.00081123056588694453 -0.00011252398689975962 0.0011707126395776868 0.0011135105742141604 0.0001069575737346895
 0.00038376203156076372 0.00082618283340707421 -0.00025558547349646688 0.0012646187096834183 0.0012007268378511071 -3.4856770071201026e-05 0.00029682618333026767 0.00078594154911115766
 -0.00039905140874907374 0.001309771672822535 0.001260029268451035 -0.00022860414173919708 0.00013502661022357643 0.00067552889231592417 -0.00055717560462653637 0.00143889628816396
 0.001380844390951097 -0.00057897338410839438 -0.00011947657912969589 0.00052319932729005814 -0.00076703366357833147 0.002064127940684557 0.0018710806034505367 -0.0013246691087260842
 -0.00060074281645938754 0.00044666128815151751 -0.0015972844557836652 0.0048118126578629017 0.0046348567120730877 -0.0033268539700657129 -0.0021184391807764769 0.00071677815867587924 !row 4
       -0.010579804889857769 0.0050032078288495541 -0.010579804889857769 0.0050032078288495541 0.029531193897128105 0.014562330208718777 0.36830776929855347 -0.4830363392829895
 0.36830776929855347 -0.4830363392829895 0.17615766823291779 0.47756832838058472 -0.0093671726062893867 0.0040408833883702755 -0.0093671726062893867 0.0040408833883702755
 0.025650352239608765 0.012669544667005539 -0.0020191953517496586 0.00081490160664543509 -0.0020191953517496586 0.00081490160664543509 0.0043603526428341866 0.0016340161673724651
 -0.00043995346641167998 0.00051651842659339309 -0.00043995346641167998 0.00051651842659339309 0.0012347197625786066 0.00085795886116102338 5.4305812227539718e-05 0.0006010507931932807
 5.4305812227539718e-05 0.0006010507931932807 0.00058775313664227724 0.00087319122394546866 0.00023625254107173532 0.00067785591818392277 0.00023625254107173532 0.00067785591818392277
 0.0004271780198905617 0.00092872668756172061 0.00038243940798565745 0.00083964498480781913 0.00038243940798565745 0.00083964498480781913 0.00044585627620108426 0.0011237474391236901
 0.00042865471914410591 0.00087961368262767792 0.00042865471914410591 0.00087961368262767792 0.00044794607674703002 0.0011698607122525573 0.00039502495201304555 0.00081052858149632812
 0.00039502495201304555 0.00081052858149632812 0.0004039222258143127 0.0010695981327444315 0.00038868008414283395 0.00082079548155888915 0.00038868008414283395 0.00082079548155888915
 0.00042207218939438462 0.0010899633634835482 0.0002968920161947608 0.00077458162559196353 0.0002968920161947608 0.00077458162559196353 0.00042975746328011155 0.00104440504219383
 0.00013554171891883016 0.00066936400253325701 0.00013554171891883016 0.00066936400253325701 0.00046274031046777964 0.00091900228289887309 -0.000118039853987284 0.0005236875731498003
 -0.000118039853987284 0.0005236875731498003 0.00062241789419203997 0.00076215248554944992 -0.00059966323897242546 0.00044523738324642181 -0.00059966323897242546 0.00044523738324642181
 0.0012850617058575153 0.00069849996361881495 -0.0021168522071093321 0.00069180713035166264 -0.0021168522071093321 0.00069180713035166264 0.0043040323071181774 0.0014752751449123025 !row 5
       0.0054312795400619507 -0.0037234961055219173 -0.0018665012903511524 0.0056927911937236786 -0.0022429255768656731 0.00094039988471195102 0.027346182614564896 -0.0099870059639215469
 -0.0075999447144567966 0.023314088582992554 -0.0093690082430839539 0.0040382654406130314 0.57941550016403198 0.39427757263183594 -0.079416133463382721 -0.35342440009117126
 0.37178686261177063 -0.48438024520874023 0.02781401202082634 -0.010115785524249077 -0.0076756235212087631 0.023703198879957199 -0.0095276394858956337 0.0043351659551262856
 0.0044536474160850048 -0.003033084562048316 -0.0015186202945187688 0.0045219170860946178 -0.0017785050440579653 0.00077309284824877977 0.0019474283326417208 -0.0011088219471275806
 -0.00072760938201099634 0.0019815019331872463 -0.00036623238702304661 0.00055384053848683834 0.0013348496286198497 -0.00038441174547187984 -0.00041658460395410657 0.0013147261925041676
 5.3288891649572179e-05 0.00060177751583978534 0.001287462655454874 -4.5900604163762182e-05 -0.00026453574537299573 0.0012522990582510829 0.00028582752565853298 0.00077994464663788676
 0.0012529417872428894 8.2721708167809993e-05 -0.00018282317614648491 0.0012349755270406604 0.00037441830500029027 0.0008526103338226676 0.0011134716914966702 0.00010687348549254239
 -0.00011254912533331662 0.0011706259101629257 0.00038853124715387821 0.00082104181637987494 0.0011816389160230756 8.2808641309384257e-05 -0.00011536357487784699 0.0012801764532923698
 0.00041636865353211761 0.00087385333608835936 0.0012411720817908645 -1.8827046233127476e-06 -0.00019327086920384318 0.0013845618814229965 0.0003782242420129478 0.00087663659360259771
 0.0012688864953815937 -8.9084664068650454e-05 -0.00029904095572419465 0.0013735839165747166 0.00027864216826856136 0.00079937477130442858 0.0012850887142121792 -0.00023694025003351271
 -0.00042443204438313842 0.0013115607434883714 0.00012233541929163039 0.00065779202850535512 0.0013812707038596272 -0.00057963951257988811 -0.00055673159658908844 0.0014382369117811322
 -0.00011913335765711963 0.00052440672880038619 0.0021972623653709888 -0.0014336103340610862 -0.00094930443447083235 0.0022888854146003723 -0.00064379151444882154 0.00049098220188170671 !row 6
       -0.0018665012903511524 0.0056927911937236786 0.0054312795400619507 -0.0037234961055219173 -0.0022429255768656731 0.0009403998265042901 -0.0075999447144567966 0.023314088582992554
 0.027346182614564896 -0.0099870059639215469 -0.0093690082430839539 0.0040382654406130314 -0.079416133463382721 -0.35342440009117126 0.57941550016403198 0.39427757263183594
 0.37178686261177063 -0.48438024520874023 -0.0076756235212087631 0.023703198879957199 0.02781401202082634 -0.010115785524249077 -0.0095276394858956337 0.0043351659551262856
 -0.0015186202945187688 0.0045219170860946178 0.0044536474160850048 -0.003033084562048316 -0.0017785050440579653 0.00077309284824877977 -0.00072760938201099634 0.0019815019331872463
 0.0019474283326417208 -0.0011088219471275806 -0.00036623238702304661 0.00055384053848683834 -0.00041658460395410657 0.0013147261925041676 0.0013348496286198497 -0.00038441174547187984
 5.3288898925529793e-05 0.00060177751583978534 -0.00026453574537299573 0.0012522990582510829 0.001287462655454874 -4.5900604163762182e-05 0.00028582752565853298 0.00077994464663788676
 -0.00018282317614648491 0.0012349755270406604 0.0012529417872428894 8.2721708167809993e-05 0.00037441830500029027 0.0008526103338226676 -0.00011254912533331662 0.0011706259101629257
 0.0011134716914966702 0.00010687348549254239 0.00038853124715387821 0.00082104181637987494 -0.00011536357487784699 0.0012801764532923698 0.0011816389160230756 8.2808641309384257e-05
 0.00041636865353211761 0.00087385333608835936 -0.00019327086920384318 0.0013845618814229965 0.0012411720817908645 -1.8827046233127476e-06 0.0003782242420129478 0.00087663659360259771
 -0.00029904095572419465 0.0013735839165747166 0.0012688864953815937 -8.9084664068650454e-05 0.00027864216826856136 0.00079937477130442858 -0.00042443204438313842 0.0013115607434883714
 0.0012850887142121792 -0.00023694025003351271 0.00012233541929163039 0.00065779208671301603 -0.00055673159658908844 0.0014382369117811322 0.0013812707038596272 -0.00057963951257988811
 -0.00011913333582924679 0.00052440672880038619 -0.00094930443447083235 0.0022888854146003723 0.0021972623653709888 -0.0014336103340610862 -0.00064379151444882154 0.00049098220188170671 !row 7
       -0.0022492385469377041 0.00093161669792607427 -0.0022492385469377041 0.00093161669792607427 0.0048645948991179466 0.0018619956681504846 -0.0093645257875323296 0.0040854383260011673
 -0.0093645257875323296 0.0040854383260011673 0.025650523602962494 0.012669436633586884 0.3716132640838623 -0.48446753621101379 0.3716132640838623 -0.48446753621101379
 0.16855926811695099 0.47257453203201294 -0.0095305377617478371 0.0042165303602814674 -0.0095305377617478371 0.0042165303602814674 0.026067828759551048 0.012883111834526062
 -0.0017759656766429543 0.00074004201451316476 -0.0017759656766429543 0.00074004201451316476 0.0038991151377558708 0.0015752110630273819 -0.00036608584923669696 0.00055393722141161561
 -0.00036608584923669696 0.00055393722141161561 0.0011802684748545289 0.00089903915068134665 4.8514546506339684e-05 0.00060981471324339509 4.8514546506339684e-05 0.00060981471324339509
 0.00058726815041154623 0.00087429682025685906 0.0002759682247415185 0.0007907634717412293 0.0002759682247415185 0.0007907634717412293 0.00049349659821018577 0.0010766196064651012
 0.0003707350988406688 0.00085595250129699707 0.0003707350988406688 0.00085595250129699707 0.00046751947957091033 0.0011515708174556494 0.00038401799974963069 0.00082590983947739005
 0.00038401799974963069 0.00082590983947739005 0.00042200673487968743 0.0010900759370997548 0.00041660410352051258 0.00087369588436558843 0.00041660410352051258 0.00087369588436558843
 0.00044776700087822974 0.0011488766176626086 0.00037336346576921642 0.00087065680418163538 0.00037336346576921642 0.00087065680418163538 0.00045589153887704015 0.0011454201303422451
 0.00027500197757035494 0.00079590152017772198 0.00027500197757035494 0.00079590152017772198 0.00044925638940185308 0.0010554452892392874 0.00012250071449670941 0.00065770064247772098
 0.00012250071449670941 0.00065770064247772098 0.00046139242476783693 0.00090641836868599057 -0.00011937912495341152 0.00052234047325327992 -0.00011937912495341152 0.00052234047325327992
